T1554 501:880 SEGGER J-Link V6.10 Log File (0001ms, 2807ms total)
T1554 501:880 DLL Compiled: Sep 14 2016 16:45:07 (0001ms, 2807ms total)
T1554 501:880 Logging started @ 2016-12-06 01:49 (0001ms, 2807ms total)
T1554 502:016 JLINK_ExecCommand("Device = AT91SAM3X8E", ...). Device "ATSAM3X8E" selected.  returns 0x00 (0000ms, 2808ms total)
T1554 502:022 JLINK_ExecCommand("ProjectFile = C:\Users\wix\Documents\GitHub\ard2017\robot\RobotA\jlink.config", ...).   returns 0x00 (0001ms, 2809ms total)
T1554 502:141 JLINK_ExecCommand("Device = AT91SAM3X8E", ...). Device "ATSAM3X8E" selected.  returns 0x00 (0001ms, 2810ms total)
T1554 502:142 JLINK_TIF_Select(JLINKARM_TIF_JTAG)  returns 0x00 (0000ms, 2810ms total)
T1554 502:143 JLINK_GetIdData(...) >0x2F8 JTAG>TotalIRLen = 4, IRPrint = 0x01 >0x30 JTAG> >0x410 JTAG> >0x70 JTAG> >0x48 JTAG> >0x40 JTAG> >0x48 JTAG>AP-IDR: 0x24770011, Type: AHB-AP >0x78 JTAG> >0x40 JTAG> >0x30 JTAG> >0x40 JTAG> >0x40 JTAG> >0x30 JTAG> >0x40 JTAG> >0x48 JTAG>Found Cortex-M3 r2p0, Little endian. -- CPU_ReadMem(4 bytes @ 0xE000EDF0) -- CPU_ReadMem(4 bytes @ 0xE0002000)FPUnit: 6 code (BP) slots and 2 literal slots -- CPU_ReadMem(4 bytes @ 0xE000EDFC) -- CPU_ReadMem(4 bytes @ 0xE0001000)
 -- CPU_WriteMem(4 bytes @ 0xE0001000) -- CPU_ReadMem(4 bytes @ 0xE000ED88) -- CPU_WriteMem(4 bytes @ 0xE000ED88) -- CPU_ReadMem(4 bytes @ 0xE000ED88) -- CPU_WriteMem(4 bytes @ 0xE000ED88)CoreSight components:ROMTbl 0 @ E00FF000 -- CPU_ReadMem(16 bytes @ 0xE00FF000) -- CPU_ReadMem(16 bytes @ 0xE000EFF0) -- CPU_ReadMem(16 bytes @ 0xE000EFE0)ROMTbl 0 [0]: FFF0F000, CID: B105E00D, PID: 002BB000 SCS -- CPU_ReadMem(16 bytes @ 0xE0001FF0) -- CPU_ReadMem(16 bytes @ 0xE0001FE0)
ROMTbl 0 [1]: FFF02000, CID: B105E00D, PID: 002BB002 DWT -- CPU_ReadMem(16 bytes @ 0xE0002FF0) -- CPU_ReadMem(16 bytes @ 0xE0002FE0)ROMTbl 0 [2]: FFF03000, CID: B105E00D, PID: 002BB003 FPB -- CPU_ReadMem(16 bytes @ 0xE0000FF0) -- CPU_ReadMem(16 bytes @ 0xE0000FE0)ROMTbl 0 [3]: FFF01000, CID: B105E00D, PID: 002BB001 ITM -- CPU_ReadMem(16 bytes @ 0xE00FF010) -- CPU_ReadMem(16 bytes @ 0xE0040FF0) -- CPU_ReadMem(16 bytes @ 0xE0040FE0)ROMTbl 0 [4]: FFF41000, CID: B105900D, PID: 002BB923 TPIU-Lite ScanLen=4
 NumDevices=1 aId[0]=0x4BA00477 aIrRead[0]=0 aScanLen[0]=0 aScanRead[0]=0 (0029ms, 2840ms total)
T1554 502:172 JLINK_ConfigJTAG(IRPre = 0, DRPre = 0) (0001ms, 2841ms total)
T1554 502:173 JLINK_SetSpeed(4000) (0000ms, 2841ms total)
T1554 502:173 JLINK_ResetPullsRESET(OFF) (0000ms, 2841ms total)
T1554 502:173 JLINK_Connect() >0x2F8 JTAG>TotalIRLen = 4, IRPrint = 0x01 >0x30 JTAG> >0x410 JTAG> >0x70 JTAG> >0x48 JTAG> >0x40 JTAG> >0x48 JTAG>AP-IDR: 0x24770011, Type: AHB-AP >0x78 JTAG> >0x40 JTAG> >0x30 JTAG> >0x40 JTAG> >0x40 JTAG> >0x30 JTAG> >0x40 JTAG> >0x48 JTAG>Found Cortex-M3 r2p0, Little endian. -- CPU_ReadMem(4 bytes @ 0xE000EDF0) -- CPU_ReadMem(4 bytes @ 0xE0002000)FPUnit: 6 code (BP) slots and 2 literal slots -- CPU_ReadMem(4 bytes @ 0xE000EDFC) -- CPU_ReadMem(4 bytes @ 0xE0001000)
 -- CPU_WriteMem(4 bytes @ 0xE0001000) -- CPU_ReadMem(4 bytes @ 0xE000ED88) -- CPU_WriteMem(4 bytes @ 0xE000ED88) -- CPU_ReadMem(4 bytes @ 0xE000ED88) -- CPU_WriteMem(4 bytes @ 0xE000ED88)CoreSight components:ROMTbl 0 @ E00FF000 -- CPU_ReadMem(16 bytes @ 0xE00FF000) -- CPU_ReadMem(16 bytes @ 0xE000EFF0) -- CPU_ReadMem(16 bytes @ 0xE000EFE0)ROMTbl 0 [0]: FFF0F000, CID: B105E00D, PID: 002BB000 SCS -- CPU_ReadMem(16 bytes @ 0xE0001FF0) -- CPU_ReadMem(16 bytes @ 0xE0001FE0)
ROMTbl 0 [1]: FFF02000, CID: B105E00D, PID: 002BB002 DWT -- CPU_ReadMem(16 bytes @ 0xE0002FF0) -- CPU_ReadMem(16 bytes @ 0xE0002FE0)ROMTbl 0 [2]: FFF03000, CID: B105E00D, PID: 002BB003 FPB -- CPU_ReadMem(16 bytes @ 0xE0000FF0) -- CPU_ReadMem(16 bytes @ 0xE0000FE0)ROMTbl 0 [3]: FFF01000, CID: B105E00D, PID: 002BB001 ITM -- CPU_ReadMem(16 bytes @ 0xE00FF010) -- CPU_ReadMem(16 bytes @ 0xE0040FF0) -- CPU_ReadMem(16 bytes @ 0xE0040FE0)ROMTbl 0 [4]: FFF41000, CID: B105900D, PID: 002BB923 TPIU-Lite
  returns 0x00 (0016ms, 2857ms total)
T1554 502:189 JLINK_Halt()  returns 0x00 (0003ms, 2860ms total)
T1554 502:192 JLINK_WriteMem(0x400E0A04, 0x0004 Bytes, ...) - Data: 0B 01 00 5A -- CPU_WriteMem(4 bytes @ 0x400E0A04)  returns 0x04 (0001ms, 2861ms total)
T1554 502:193 JLINK_ReadMem (0x400E0A08, 0x0004 Bytes, ...) -- CPU_ReadMem(4 bytes @ 0x400E0A08) - Data: 01 00 00 00  returns 0x00 (0000ms, 2861ms total)
T1554 502:193 JLINK_WriteMem(0x400E0A04, 0x0004 Bytes, ...) - Data: 0C 02 00 5A -- CPU_WriteMem(4 bytes @ 0x400E0A04)  returns 0x04 (0001ms, 2862ms total)
T1554 502:194 JLINK_ReadMem (0x400E0A08, 0x0004 Bytes, ...) -- CPU_ReadMem(4 bytes @ 0x400E0A08) - Data: 01 00 00 00  returns 0x00 (0000ms, 2862ms total)
T1554 502:195 JLINK_Reset() -- CPU_ReadMem(16 bytes @ 0x20000000) -- CPU_WriteMem(16 bytes @ 0x20000000) -- CPU_ReadMem(4 bytes @ 0xE000EDFC) -- CPU_WriteMem(4 bytes @ 0xE000EDFC) -- CPU_ReadMem(4 bytes @ 0xE0001000) -- CPU_WriteMem(4 bytes @ 0xE000ED0C) -- CPU_ReadMem(4 bytes @ 0xE000EDF0) -- CPU_ReadMem(4 bytes @ 0xE000EDF0) -- CPU_WriteMem(4 bytes @ 0xE000EDFC) -- CPU_WriteMem(16 bytes @ 0x20000000) -- CPU_WriteMem(4 bytes @ 0xE0002000) -- CPU_ReadMem(4 bytes @ 0xE000EDFC)
 -- CPU_ReadMem(4 bytes @ 0xE0001000) (0023ms, 2886ms total)
T1554 502:219 JLINK_JTAG_GetDeviceID(DeviceIndex = 0)  returns 0x4BA00477 (0000ms, 2886ms total)
T1554 502:219 JLINK_ReadMemU32(0x400E0940, 0x0001 Items, ...) -- CPU_ReadMem(4 bytes @ 0x400E0940) - Data: 60 0A 5E 28  returns 0x01 (0001ms, 2887ms total)
T1554 502:220 JLINK_ReadMemU32(0x400E0944, 0x0001 Items, ...) -- CPU_ReadMem(4 bytes @ 0x400E0944) - Data: 00 00 00 00  returns 0x01 (0001ms, 2888ms total)
T1554 502:221 JLINK_WriteMem(0x400E0A04, 0x0004 Bytes, ...) - Data: 05 00 00 5A -- CPU_WriteMem(4 bytes @ 0x400E0A04)  returns 0x04 (0000ms, 2888ms total)
T1554 502:221 JLINK_WriteMem(0x400E0C04, 0x0004 Bytes, ...) - Data: 05 00 00 5A -- CPU_WriteMem(4 bytes @ 0x400E0C04)  returns 0x04 (0001ms, 2889ms total)
T1554 502:222 JLINK_ReadMem (0x400E0A08, 0x0004 Bytes, ...) -- CPU_ReadMem(4 bytes @ 0x400E0A08) - Data: 00 00 00 00  returns 0x00 (0000ms, 2889ms total)
T1554 502:224 JLINK_ReadMem (0x400E0A08, 0x0004 Bytes, ...) -- CPU_ReadMem(4 bytes @ 0x400E0A08) - Data: 00 00 00 00  returns 0x00 (0000ms, 2890ms total)
T1554 502:228 JLINK_ReadMem (0x400E0A08, 0x0004 Bytes, ...) -- CPU_ReadMem(4 bytes @ 0x400E0A08) - Data: 00 00 00 00  returns 0x00 (0000ms, 2890ms total)
T335C 502:229 JLINK_IsHalted()  returns TRUE (0000ms, 2890ms total)
T335C 502:229 JLINK_GetMOEs(...) -- CPU_ReadMem(4 bytes @ 0xE000ED30)  returns 0x01 (0000ms, 2890ms total)
T335C 502:229 JLINK_ReadReg(R15 (PC))  returns 0x000813EC (0000ms, 2890ms total)
T1554 502:244 JLINK_ReadMem (0x400E0A08, 0x0004 Bytes, ...) -- CPU_ReadMem(4 bytes @ 0x400E0A08) - Data: 01 00 00 00  returns 0x00 (0000ms, 2890ms total)
T1554 502:244 JLINK_ReadMem (0x400E0C08, 0x0004 Bytes, ...) -- CPU_ReadMem(4 bytes @ 0x400E0C08) - Data: 01 00 00 00  returns 0x00 (0001ms, 2891ms total)
T335C 502:429 JLINK_IsHalted()  returns TRUE (0000ms, 2891ms total)
T1554 502:429 JLINK_ResetPullsRESET(ON) (0000ms, 2891ms total)
T1554 502:429 JLINK_ResetNoHalt() >0x2F8 JTAG>TotalIRLen = 4, IRPrint = 0x01 >0x30 JTAG> >0x410 JTAG> >0x70 JTAG> >0x48 JTAG> >0x40 JTAG> >0x48 JTAG>AP-IDR: 0x24770011, Type: AHB-AP >0x78 JTAG> >0x40 JTAG> >0x30 JTAG> >0x40 JTAG> >0x40 JTAG> >0x30 JTAG> >0x40 JTAG> >0x48 JTAG>Found Cortex-M3 r2p0, Little endian. -- CPU_ReadMem(4 bytes @ 0xE000EDF0) -- CPU_ReadMem(4 bytes @ 0xE0002000)FPUnit: 6 code (BP) slots and 2 literal slots -- CPU_ReadMem(4 bytes @ 0xE000EDFC) -- CPU_ReadMem(4 bytes @ 0xE0001000)
 -- CPU_ReadMem(4 bytes @ 0xE000ED88) -- CPU_WriteMem(4 bytes @ 0xE000ED88) -- CPU_ReadMem(4 bytes @ 0xE000ED88) -- CPU_WriteMem(4 bytes @ 0xE000ED88)CoreSight components:ROMTbl 0 @ E00FF000 -- CPU_ReadMem(16 bytes @ 0xE00FF000) -- CPU_ReadMem(16 bytes @ 0xE000EFF0) -- CPU_ReadMem(16 bytes @ 0xE000EFE0)ROMTbl 0 [0]: FFF0F000, CID: B105E00D, PID: 002BB000 SCS -- CPU_WriteMem(4 bytes @ 0xE0001000) -- CPU_ReadMem(16 bytes @ 0xE0001FF0) -- CPU_ReadMem(16 bytes @ 0xE0001FE0)
ROMTbl 0 [1]: FFF02000, CID: B105E00D, PID: 002BB002 DWT -- CPU_ReadMem(16 bytes @ 0xE0002FF0) -- CPU_ReadMem(16 bytes @ 0xE0002FE0)ROMTbl 0 [2]: FFF03000, CID: B105E00D, PID: 002BB003 FPB -- CPU_ReadMem(16 bytes @ 0xE0000FF0) -- CPU_ReadMem(16 bytes @ 0xE0000FE0)ROMTbl 0 [3]: FFF01000, CID: B105E00D, PID: 002BB001 ITM -- CPU_ReadMem(16 bytes @ 0xE00FF010) -- CPU_ReadMem(16 bytes @ 0xE0040FF0) -- CPU_ReadMem(16 bytes @ 0xE0040FE0)ROMTbl 0 [4]: FFF41000, CID: B105900D, PID: 002BB923 TPIU-Lite
                JLINK_Reset() -- CPU_ReadMem(16 bytes @ 0x20000000) -- CPU_WriteMem(16 bytes @ 0x20000000) -- CPU_ReadMem(4 bytes @ 0xE000EDFC) -- CPU_WriteMem(4 bytes @ 0xE000EDFC) -- CPU_ReadMem(4 bytes @ 0xE0001000) -- CPU_WriteMem(4 bytes @ 0xE0001004) -- CPU_WriteMem(4 bytes @ 0xE000ED0C) -- CPU_ReadMem(4 bytes @ 0xE000EDF0) -- CPU_ReadMem(4 bytes @ 0xE000EDF0) -- CPU_WriteMem(4 bytes @ 0xE000EDFC) -- CPU_WriteMem(16 bytes @ 0x20000000) -- CPU_WriteMem(4 bytes @ 0xE0002000)
 -- CPU_ReadMem(4 bytes @ 0xE000EDFC) -- CPU_ReadMem(4 bytes @ 0xE0001000) (0024ms, 0024ms total)
                JLINK_Go() -- CPU_ReadMem(4 bytes @ 0xE0001000) -- CPU_WriteMem(4 bytes @ 0xE0001004) (0001ms, 0025ms total)
               (0045ms, 2936ms total)
T1554 502:475 JLINK_ExecCommand("ProjectFile = C:\Users\wix\Documents\GitHub\ard2017\robot\RobotA\jlink.config", ...).   returns 0x00 (0001ms, 2937ms total)
T1554 502:620 JLINK_ExecCommand("Device = AT91SAM3X8E", ...). Device "ATSAM3X8E" selected.  returns 0x00 (0001ms, 2938ms total)
T1554 502:621 JLINK_TIF_Select(JLINKARM_TIF_JTAG)  returns 0x00 (0000ms, 2938ms total)
T1554 502:621 JLINK_GetIdData(...) ScanLen=4 NumDevices=1 aId[0]=0x4BA00477 aIrRead[0]=0 aScanLen[0]=0 aScanRead[0]=0 (0000ms, 2938ms total)
T1554 502:621 JLINK_ConfigJTAG(IRPre = 0, DRPre = 0) (0000ms, 2938ms total)
T1554 502:621 JLINK_SetSpeed(4000) (0000ms, 2938ms total)
T1554 502:621 JLINK_ResetPullsRESET(OFF) (0001ms, 2939ms total)
T1554 502:622 JLINK_Connect() >0x2F8 JTAG>TotalIRLen = 4, IRPrint = 0x01 >0x30 JTAG> >0x410 JTAG> >0x70 JTAG> >0x48 JTAG> >0x40 JTAG> >0x48 JTAG>AP-IDR: 0x24770011, Type: AHB-AP >0x78 JTAG> >0x40 JTAG> >0x30 JTAG> >0x40 JTAG> >0x40 JTAG> >0x30 JTAG> >0x40 JTAG> >0x48 JTAG>Found Cortex-M3 r2p0, Little endian. -- CPU_ReadMem(4 bytes @ 0xE000EDF0) -- CPU_ReadMem(4 bytes @ 0xE0002000)FPUnit: 6 code (BP) slots and 2 literal slots -- CPU_ReadMem(4 bytes @ 0xE000EDFC) -- CPU_ReadMem(4 bytes @ 0xE0001000)
 -- CPU_WriteMem(4 bytes @ 0xE0001000) -- CPU_ReadMem(4 bytes @ 0xE000ED88) -- CPU_WriteMem(4 bytes @ 0xE000ED88) -- CPU_ReadMem(4 bytes @ 0xE000ED88) -- CPU_WriteMem(4 bytes @ 0xE000ED88)CoreSight components:ROMTbl 0 @ E00FF000 -- CPU_ReadMem(16 bytes @ 0xE00FF000) -- CPU_ReadMem(16 bytes @ 0xE000EFF0) -- CPU_ReadMem(16 bytes @ 0xE000EFE0)ROMTbl 0 [0]: FFF0F000, CID: B105E00D, PID: 002BB000 SCS -- CPU_ReadMem(16 bytes @ 0xE0001FF0) -- CPU_ReadMem(16 bytes @ 0xE0001FE0)
ROMTbl 0 [1]: FFF02000, CID: B105E00D, PID: 002BB002 DWT -- CPU_ReadMem(16 bytes @ 0xE0002FF0) -- CPU_ReadMem(16 bytes @ 0xE0002FE0)ROMTbl 0 [2]: FFF03000, CID: B105E00D, PID: 002BB003 FPB -- CPU_ReadMem(16 bytes @ 0xE0000FF0) -- CPU_ReadMem(16 bytes @ 0xE0000FE0)ROMTbl 0 [3]: FFF01000, CID: B105E00D, PID: 002BB001 ITM -- CPU_ReadMem(16 bytes @ 0xE00FF010) -- CPU_ReadMem(16 bytes @ 0xE0040FF0) -- CPU_ReadMem(16 bytes @ 0xE0040FE0)ROMTbl 0 [4]: FFF41000, CID: B105900D, PID: 002BB923 TPIU-Lite
  returns 0x00 (0016ms, 2955ms total)
T1554 502:638 JLINK_Halt()  returns 0x00 (0003ms, 2958ms total)
T1554 502:641 JLINK_WriteMem(0x400E0A04, 0x0004 Bytes, ...) - Data: 0B 01 00 5A -- CPU_WriteMem(4 bytes @ 0x400E0A04)  returns 0x04 (0001ms, 2959ms total)
T1554 502:642 JLINK_ReadMem (0x400E0A08, 0x0004 Bytes, ...) -- CPU_ReadMem(4 bytes @ 0x400E0A08) - Data: 01 00 00 00  returns 0x00 (0001ms, 2960ms total)
T1554 502:643 JLINK_WriteMem(0x400E0A04, 0x0004 Bytes, ...) - Data: 0C 02 00 5A -- CPU_WriteMem(4 bytes @ 0x400E0A04)  returns 0x04 (0000ms, 2960ms total)
T1554 502:643 JLINK_ReadMem (0x400E0A08, 0x0004 Bytes, ...) -- CPU_ReadMem(4 bytes @ 0x400E0A08) - Data: 01 00 00 00  returns 0x00 (0001ms, 2961ms total)
T1554 502:644 JLINK_Reset() -- CPU_ReadMem(16 bytes @ 0x20000000) -- CPU_WriteMem(16 bytes @ 0x20000000) -- CPU_ReadMem(4 bytes @ 0xE000EDFC) -- CPU_WriteMem(4 bytes @ 0xE000EDFC) -- CPU_ReadMem(4 bytes @ 0xE0001000) -- CPU_WriteMem(4 bytes @ 0xE000ED0C) -- CPU_ReadMem(4 bytes @ 0xE000EDF0) -- CPU_ReadMem(4 bytes @ 0xE000EDF0) -- CPU_WriteMem(4 bytes @ 0xE000EDFC) -- CPU_WriteMem(16 bytes @ 0x20000000) -- CPU_WriteMem(4 bytes @ 0xE0002000) -- CPU_ReadMem(4 bytes @ 0xE000EDFC)
 -- CPU_ReadMem(4 bytes @ 0xE0001000) (0023ms, 2984ms total)
T1554 502:668 JLINK_JTAG_GetDeviceID(DeviceIndex = 0)  returns 0x4BA00477 (0000ms, 2984ms total)
T1554 502:668 JLINK_ReadMemU32(0x400E0940, 0x0001 Items, ...) -- CPU_ReadMem(4 bytes @ 0x400E0940) - Data: 60 0A 5E 28  returns 0x01 (0001ms, 2985ms total)
T1554 502:669 JLINK_ReadMemU32(0x400E0944, 0x0001 Items, ...) -- CPU_ReadMem(4 bytes @ 0x400E0944) - Data: 00 00 00 00  returns 0x01 (0001ms, 2986ms total)
T152C 502:678 JLINK_IsHalted()  returns TRUE (0000ms, 2986ms total)
T152C 502:678 JLINK_GetMOEs(...) -- CPU_ReadMem(4 bytes @ 0xE000ED30)  returns 0x01 (0000ms, 2986ms total)
T152C 502:678 JLINK_ReadReg(R15 (PC))  returns 0xFFFFFFFE (0001ms, 2987ms total)
T1554 502:720 JLINK_BeginDownload(Flags = 0x00) (0000ms, 2987ms total)
T1554 502:720 JLINK_WriteMem(0x00080000, 0x13878 Bytes, ...) - Data: 00 80 08 20 ED 13 08 00 D1 42 08 00 85 1B 08 00 ...  returns 0x13878 (0001ms, 2988ms total)
T1554 502:721 JLINK_WriteMem(0x00093878, 0x0008 Bytes, ...) - Data: 1C 58 FF 7F 01 00 00 00  returns 0x08 (0000ms, 2988ms total)
T1554 502:721 JLINK_WriteMem(0x00093880, 0x098C Bytes, ...) - Data: 72 B6 07 4A 93 68 13 F0 01 0F 05 4B FA D0 05 4A ...  returns 0x98C (0001ms, 2989ms total)
T1554 502:740 JLINK_EndDownload()Old firmware which does not support pausing periodic actions during flash download -- -------------------------------------- -- Start of determining dirty areas in flash cache -- End of determining dirty areas -- Start of preparing flash programming -- Calculating RAM usage -- RAM usage = 5940 Bytes -- Preserving CPU registers -- Preparing memory -- Determining CPU clock frequency -- Preparing target -- Downloading RAMCode -- Checking target RAM -- Preparing RAMCode
 -- End of preparing flash programming -- CPU speed could not be measured. -- Start of comparing flash -- CRC check was estimated as fastest method -- Comparing range 0x80000 - 0x8FFFF (256 Sectors, 64 KB), using multi-block CRC calculation -- CRC does not match for sectors 0-255 -- Comparing range 0x90000 - 0x942FF (67 Sectors, 16 KB), using multi-block CRC calculation -- CRC does not match for sectors 0-66 -- End of comparing flash -- Start of erasing sectors -- End of erasing sectors
 -- Start of flash programming -- Programming range 0x00080000 - 0x00087FFF (128 Sectors, 32 KB) -- Programming range 0x00088000 - 0x0008FFFF (128 Sectors, 32 KB) -- Programming range 0x00090000 - 0x000942FF (067 Sectors, 16 KB) -- End of flash programming -- 0x80000 - 0x942FF (323 Sectors, 80 KB) -- Start of verifying flash -- Checksum calculation was estimated as fastest method -- Checksum is not supported by this flash bank. Switched to CRC method. -- End of verifying flash -- Start of restoring
 -- Restoring RAMCode -- Restore target -- Restore memory -- Restoring CPU registers -- End of restoring -- Flash programming performed for 1 range (82688 bytes) -- Total time needed: 1.157s (Prepare: 0.041s, Compare: 0.110s, Erase: 0.000s, Program: 0.955s, Verify: 0.046s, Restore: 0.004s)  returns 0x14300 (1161ms, 4150ms total)
T152C 503:901 JLINK_IsHalted()  returns TRUE (0000ms, 4150ms total)
T2C4C 504:015 JLINK_Halt()  returns 0x00 (0000ms, 4150ms total)
T2C4C 504:015 JLINK_ReadReg(R15 (PC))  returns 0xFFFFFFFE (0000ms, 4150ms total)
T2C4C 504:015 JLINK_ReadReg(R13 (SP))  returns 0xFFFFFFFC (0001ms, 4151ms total)
T2C4C 504:052 JLINK_ReadReg(R0)  returns 0x400E1A00 (0001ms, 4152ms total)
T2C4C 504:053 JLINK_ReadReg(R1)  returns 0x00000000 (0000ms, 4152ms total)
T2C4C 504:053 JLINK_ReadReg(R2)  returns 0xA5000004 (0000ms, 4152ms total)
T2C4C 504:053 JLINK_ReadReg(R3)  returns 0x40008000 (0000ms, 4152ms total)
T2C4C 504:053 JLINK_ReadReg(R4)  returns 0x00000003 (0001ms, 4153ms total)
T2C4C 504:054 JLINK_ReadReg(R5)  returns 0x00000001 (0000ms, 4153ms total)
T2C4C 504:054 JLINK_ReadReg(R6)  returns 0x00000002 (0000ms, 4153ms total)
T2C4C 504:054 JLINK_ReadReg(R7)  returns 0x00085C09 (0000ms, 4153ms total)
T2C4C 504:054 JLINK_ReadReg(R8)  returns 0x00000000 (0001ms, 4154ms total)
T2C4C 504:055 JLINK_ReadReg(R9)  returns 0x00085BED (0000ms, 4154ms total)
T2C4C 504:055 JLINK_ReadReg(R10)  returns 0x00085D51 (0000ms, 4154ms total)
T2C4C 504:055 JLINK_ReadReg(R11)  returns 0xA5A5A5A5 (0000ms, 4154ms total)
T2C4C 504:055 JLINK_ReadReg(R12)  returns 0x00088CA1 (0000ms, 4154ms total)
T2C4C 504:056 JLINK_ReadReg(R13 (SP))  returns 0xFFFFFFFC (0000ms, 4154ms total)
T2C4C 504:056 JLINK_ReadReg(R14)  returns 0xFFFFFFFF (0000ms, 4154ms total)
T2C4C 504:056 JLINK_ReadReg(R15 (PC))  returns 0xFFFFFFFE (0000ms, 4154ms total)
T2C4C 504:056 JLINK_ReadReg(XPSR)  returns 0x01000000 (0000ms, 4154ms total)
T2C4C 504:056 JLINK_ReadReg(MSP)  returns 0xFFFFFFFC (0000ms, 4154ms total)
T2C4C 504:056 JLINK_ReadReg(PSP)  returns 0x20075460 (0000ms, 4154ms total)
T2C4C 504:056 JLINK_ReadReg(PRIMASK)  returns 0x00000000 (0000ms, 4154ms total)
T2C4C 504:056 JLINK_ReadReg(BASEPRI)  returns 0x00000000 (0001ms, 4155ms total)
T2C4C 504:057 JLINK_ReadReg(FAULTMASK)  returns 0x00000000 (0000ms, 4155ms total)
T2C4C 504:057 JLINK_ReadReg(CONTROL)  returns 0x00000000 (0000ms, 4155ms total)
T152C 504:101 JLINK_IsHalted()  returns TRUE (0000ms, 4155ms total)
T2C4C 504:110 JLINK_ReadMemHW(0x00081AE2, 0x0002 Bytes, ...) -- CPU_ReadMem(2 bytes @ 0x00081AE2) - Data: 06 46  returns 0x00 (0001ms, 4156ms total)
T2C4C 504:111 JLINK_ReadMemHW(0x00081AE0, 0x0002 Bytes, ...) -- CPU_ReadMem(2 bytes @ 0x00081AE0) - Data: F8 B5  returns 0x00 (0001ms, 4157ms total)
T1554 504:141 JLINK_GetNumBPUnits(Type = 0xFFFFFF02)  returns 0x06 (0000ms, 4157ms total)
T1554 504:141 JLINK_SetBPEx(Addr = 0x00081AE0, Type = 0xFFFFFFF2)  returns 0x00000001 (0001ms, 4158ms total)
T1554 504:142 JLINK_GetBPInfo(BPHandle = 1)  returns 0x00 (0000ms, 4158ms total)
T2C4C 504:152 JLINK_Reset() -- CPU_ReadMem(16 bytes @ 0x20000000) -- CPU_WriteMem(16 bytes @ 0x20000000) -- CPU_ReadMem(4 bytes @ 0xE000EDFC) -- CPU_WriteMem(4 bytes @ 0xE000EDFC) -- CPU_ReadMem(4 bytes @ 0xE0001000) -- CPU_WriteMem(4 bytes @ 0xE000ED0C) -- CPU_ReadMem(4 bytes @ 0xE000EDF0) -- CPU_ReadMem(4 bytes @ 0xE000EDF0) -- CPU_WriteMem(4 bytes @ 0xE000EDFC) -- CPU_WriteMem(16 bytes @ 0x20000000) -- CPU_WriteMem(4 bytes @ 0xE0002000) -- CPU_ReadMem(4 bytes @ 0xE000EDFC)
 -- CPU_ReadMem(4 bytes @ 0xE0001000) (0024ms, 4182ms total)
T152C 504:176 JLINK_IsHalted()  returns TRUE (0000ms, 4182ms total)
T152C 504:176 JLINK_GetMOEs(...) -- CPU_ReadMem(4 bytes @ 0xE000ED30)  returns 0x01 (0001ms, 4183ms total)
T152C 504:177 JLINK_ReadReg(R15 (PC))  returns 0x000813EC (0001ms, 4184ms total)
T2C4C 504:186 JLINK_ReadReg(R15 (PC))  returns 0x000813EC (0000ms, 4184ms total)
T2C4C 504:186 JLINK_ReadReg(R13 (SP))  returns 0x20088000 (0001ms, 4185ms total)
T2C4C 504:206 JLINK_ReadMemHW(0x000813EC, 0x0004 Bytes, ...) -- CPU_ReadMem(4 bytes @ 0x000813EC) - Data: 08 B5 15 4A  returns 0x00 (0001ms, 4186ms total)
T2C4C 504:242 JLINK_ReadMemHW(0x000802E0, 0x0001 Bytes, ...) -- CPU_ReadMem(1 bytes @ 0x000802E0) - Data: 08  returns 0x00 (0002ms, 4188ms total)
T2C4C 504:296 JLINK_ReadReg(R15 (PC))  returns 0x000813EC (0001ms, 4189ms total)
T2C4C 504:297 JLINK_SetBPEx(Addr = 0x000802E0, Type = 0xFFFFFFF2)  returns 0x00000002 (0000ms, 4189ms total)
T2C4C 504:298 JLINK_GetBPInfo(BPHandle = 2)  returns 0x00 (0000ms, 4190ms total)
T2C4C 504:299 JLINK_Go() -- CPU_ReadMem(4 bytes @ 0xE0001000) -- CPU_WriteMem(4 bytes @ 0xE000ED30) -- CPU_WriteMem(4 bytes @ 0xE0002008) -- CPU_WriteMem(4 bytes @ 0xE000200C) -- CPU_WriteMem(4 bytes @ 0xE0002010) -- CPU_WriteMem(4 bytes @ 0xE0002014) -- CPU_WriteMem(4 bytes @ 0xE0002018) -- CPU_WriteMem(4 bytes @ 0xE000201C) -- CPU_WriteMem(4 bytes @ 0xE0001004) (0006ms, 4196ms total)
T152C 504:305 JLINK_IsHalted()  returns FALSE (0002ms, 4198ms total)
T152C 504:327 JLINK_IsHalted()  returns TRUE (0004ms, 4202ms total)
T152C 504:331 JLINK_GetMOEs(...) -- CPU_ReadMem(4 bytes @ 0xE000ED30)  returns 0x01 (0002ms, 4200ms total)
T152C 504:333 JLINK_ReadReg(R15 (PC))  returns 0x000802E0 (0000ms, 4200ms total)
T152C 504:334 JLINK_WriteU32(0xE000EDFC, 0x01000000) -- CPU_WriteMem(4 bytes @ 0xE000EDFC)  returns 0x00 (0001ms, 4202ms total)
T152C 504:336 JLINK_ReadMem (0xE0001000, 0x0004 Bytes, ...) -- CPU_ReadMem(4 bytes @ 0xE0001000) - Data: 01 00 00 40  returns 0x00 (0001ms, 4204ms total)
T152C 504:337 JLINK_WriteU32(0xE0001000, 0x40000001)  returns 0x00 (0001ms, 4205ms total)
T152C 504:338 JLINK_WriteU32(0xE0001028, 0x00000100)  returns 0x00 (0001ms, 4206ms total)
T152C 504:339 JLINK_ReadMem (0xE0001028, 0x0004 Bytes, ...) -- CPU_WriteMem(4 bytes @ 0xE0001028) -- CPU_ReadMem(4 bytes @ 0xE0001028) - Data: 00 00 00 00  returns 0x00 (0002ms, 4208ms total)
T152C 504:342 JLINK_WriteU32(0xE0001024, 0x0000001F)  returns 0x00 (0000ms, 4209ms total)
T152C 504:343 JLINK_ReadMem (0xE0001024, 0x0004 Bytes, ...) -- CPU_WriteMem(4 bytes @ 0xE0001024) -- CPU_ReadMem(4 bytes @ 0xE0001024) - Data: 0F 00 00 00  returns 0x00 (0002ms, 4212ms total)
T152C 504:345 JLINK_WriteU32(0xE0001038, 0x00000100)  returns 0x00 (0001ms, 4213ms total)
T152C 504:346 JLINK_ReadMem (0xE0001038, 0x0004 Bytes, ...) -- CPU_WriteMem(4 bytes @ 0xE0001038) -- CPU_ReadMem(4 bytes @ 0xE0001038) - Data: 00 03 00 00  returns 0x00 (0002ms, 4215ms total)
T152C 504:348 JLINK_WriteU32(0xE0001034, 0x0000001F)  returns 0x00 (0001ms, 4216ms total)
T152C 504:349 JLINK_ReadMem (0xE0001034, 0x0004 Bytes, ...) -- CPU_WriteMem(4 bytes @ 0xE0001034) -- CPU_ReadMem(4 bytes @ 0xE0001034) - Data: 0F 00 00 00  returns 0x00 (0002ms, 4218ms total)
T152C 504:351 JLINK_WriteU32(0xE0001048, 0x00000100)  returns 0x00 (0000ms, 4218ms total)
T152C 504:352 JLINK_ReadMem (0xE0001048, 0x0004 Bytes, ...) -- CPU_WriteMem(4 bytes @ 0xE0001048) -- CPU_ReadMem(4 bytes @ 0xE0001048) - Data: 00 00 00 00  returns 0x00 (0001ms, 4220ms total)
T152C 504:353 JLINK_WriteU32(0xE0001044, 0x0000001F)  returns 0x00 (0001ms, 4221ms total)
T152C 504:354 JLINK_ReadMem (0xE0001044, 0x0004 Bytes, ...) -- CPU_WriteMem(4 bytes @ 0xE0001044) -- CPU_ReadMem(4 bytes @ 0xE0001044) - Data: 0F 00 00 00  returns 0x00 (0002ms, 4223ms total)
T152C 504:356 JLINK_WriteU32(0xE0001058, 0x00000100)  returns 0x00 (0001ms, 4224ms total)
T152C 504:357 JLINK_ReadMem (0xE0001058, 0x0004 Bytes, ...) -- CPU_WriteMem(4 bytes @ 0xE0001058) -- CPU_ReadMem(4 bytes @ 0xE0001058) - Data: 00 00 00 00  returns 0x00 (0002ms, 4226ms total)
T152C 504:359 JLINK_WriteU32(0xE0001054, 0x0000001F)  returns 0x00 (0000ms, 4226ms total)
T152C 504:360 JLINK_ReadMem (0xE0001054, 0x0004 Bytes, ...) -- CPU_WriteMem(4 bytes @ 0xE0001054) -- CPU_ReadMem(4 bytes @ 0xE0001054) - Data: 0F 00 00 00  returns 0x00 (0002ms, 4229ms total)
T152C 504:362 JLINK_WriteU32(0xE0001020, 0x00000000)  returns 0x00 (0000ms, 4229ms total)
T152C 504:363 JLINK_WriteU32(0xE0001024, 0x00000000)  returns 0x00 (0000ms, 4230ms total)
T152C 504:363 JLINK_WriteU32(0xE0001028, 0x00000000)  returns 0x00 (0001ms, 4231ms total)
T152C 504:364 JLINK_WriteU32(0xE0001030, 0x00000000)  returns 0x00 (0000ms, 4231ms total)
T152C 504:365 JLINK_WriteU32(0xE0001034, 0x00000000)  returns 0x00 (0000ms, 4232ms total)
T152C 504:365 JLINK_WriteU32(0xE0001038, 0x00000000)  returns 0x00 (0001ms, 4233ms total)
T152C 504:366 JLINK_WriteU32(0xE0001040, 0x00000000)  returns 0x00 (0001ms, 4234ms total)
T152C 504:367 JLINK_WriteU32(0xE0001044, 0x00000000)  returns 0x00 (0000ms, 4234ms total)
T152C 504:367 JLINK_WriteU32(0xE0001048, 0x00000000)  returns 0x00 (0001ms, 4235ms total)
T152C 504:368 JLINK_WriteU32(0xE0001050, 0x00000000)  returns 0x00 (0000ms, 4235ms total)
T152C 504:368 JLINK_WriteU32(0xE0001054, 0x00000000)  returns 0x00 (0001ms, 4236ms total)
T152C 504:369 JLINK_WriteU32(0xE0001058, 0x00000000)  returns 0x00 (0000ms, 4236ms total)
T152C 504:369 JLINK_GetBPInfo(BPHandle = 2)  returns 0x00 (0001ms, 4237ms total)
T152C 504:370 JLINK_ClrBPEx(BPHandle = 0x00000002)  returns 0x00 (0000ms, 4237ms total)
T2C4C 504:376 JLINK_ReadReg(R15 (PC))  returns 0x000802E0 (0000ms, 4237ms total)
T2C4C 504:377 JLINK_ReadReg(R13 (SP))  returns 0x20087FF8 (0000ms, 4238ms total)
T2C4C 504:378 JLINK_ReadMemHW(0x000802E0, 0x0004 Bytes, ...) -- CPU_ReadMem(4 bytes @ 0x000802E0) - Data: 08 B5 0B 4B  returns 0x00 (0002ms, 4241ms total)
T2C4C 504:435 JLINK_ReadReg(R15 (PC))  returns 0x000802E0 (0001ms, 4242ms total)
T2C4C 504:436 JLINK_Go() -- CPU_WriteMem(4 bytes @ 0xE0001000) -- CPU_ReadMem(4 bytes @ 0xE0001000) -- CPU_WriteMem(4 bytes @ 0xE000ED30) -- CPU_WriteMem(4 bytes @ 0xE0001020) -- CPU_WriteMem(4 bytes @ 0xE0001030) -- CPU_WriteMem(4 bytes @ 0xE0001040) -- CPU_WriteMem(4 bytes @ 0xE0001050) -- CPU_WriteMem(4 bytes @ 0xE0001024) -- CPU_WriteMem(4 bytes @ 0xE0001034) -- CPU_WriteMem(4 bytes @ 0xE0001044) -- CPU_WriteMem(4 bytes @ 0xE0001054) -- CPU_WriteMem(4 bytes @ 0xE0001028)
 -- CPU_WriteMem(4 bytes @ 0xE0001038) -- CPU_WriteMem(4 bytes @ 0xE0001048) -- CPU_WriteMem(4 bytes @ 0xE0001058) -- CPU_WriteMem(4 bytes @ 0xE000200C) (0010ms, 4252ms total)
T152C 504:446 JLINK_IsHalted()  returns FALSE (0001ms, 4253ms total)
T152C 504:488 JLINK_IsHalted()  returns FALSE (0000ms, 4252ms total)
T152C 504:648 JLINK_IsHalted()  returns FALSE (0001ms, 4253ms total)
T152C 504:850 JLINK_IsHalted()  returns FALSE (0001ms, 4253ms total)
T152C 505:052 JLINK_IsHalted()  returns FALSE (0001ms, 4253ms total)
T152C 505:253 JLINK_IsHalted()  returns FALSE (0001ms, 4253ms total)
T152C 505:454 JLINK_IsHalted()  returns FALSE (0001ms, 4253ms total)
T152C 505:656 JLINK_IsHalted()  returns FALSE (0000ms, 4252ms total)
T152C 505:857 JLINK_IsHalted()  returns FALSE (0000ms, 4252ms total)
T152C 506:057 JLINK_IsHalted()  returns FALSE (0000ms, 4252ms total)
T152C 506:257 JLINK_IsHalted()  returns FALSE (0000ms, 4252ms total)
T152C 506:458 JLINK_IsHalted()  returns FALSE (0001ms, 4253ms total)
T152C 506:660 JLINK_IsHalted()  returns FALSE (0001ms, 4253ms total)
T152C 506:863 JLINK_IsHalted()  returns FALSE (0000ms, 4252ms total)
T152C 507:064 JLINK_IsHalted()  returns FALSE (0001ms, 4253ms total)
T152C 507:265 JLINK_IsHalted()  returns FALSE (0001ms, 4253ms total)
T152C 507:467 JLINK_IsHalted()  returns FALSE (0001ms, 4253ms total)
T152C 507:669 JLINK_IsHalted()  returns FALSE (0001ms, 4253ms total)
T152C 507:870 JLINK_IsHalted()  returns FALSE (0000ms, 4252ms total)
T152C 508:070 JLINK_IsHalted()  returns FALSE (0000ms, 4252ms total)
T152C 508:271 JLINK_IsHalted()  returns FALSE (0001ms, 4253ms total)
T152C 508:473 JLINK_IsHalted()  returns FALSE (0000ms, 4252ms total)
T152C 508:674 JLINK_IsHalted()  returns FALSE (0001ms, 4253ms total)
T152C 508:875 JLINK_IsHalted()  returns FALSE (0001ms, 4253ms total)
T152C 509:077 JLINK_IsHalted()  returns FALSE (0000ms, 4252ms total)
T152C 509:278 JLINK_IsHalted()  returns FALSE (0001ms, 4253ms total)
T152C 509:480 JLINK_IsHalted()  returns FALSE (0001ms, 4253ms total)
T152C 509:681 JLINK_IsHalted()  returns FALSE (0000ms, 4252ms total)
T152C 509:882 JLINK_IsHalted()  returns FALSE (0001ms, 4253ms total)
T152C 510:083 JLINK_IsHalted()  returns FALSE (0000ms, 4252ms total)
T152C 510:285 JLINK_IsHalted()  returns FALSE (0001ms, 4253ms total)
T152C 510:486 JLINK_IsHalted()  returns FALSE (0000ms, 4252ms total)
T152C 510:687 JLINK_IsHalted()  returns FALSE (0001ms, 4253ms total)
T152C 510:889 JLINK_IsHalted()  returns FALSE (0001ms, 4253ms total)
T152C 511:090 JLINK_IsHalted()  returns FALSE (0000ms, 4252ms total)
T152C 511:290 JLINK_IsHalted()  returns FALSE (0001ms, 4253ms total)
T152C 511:492 JLINK_IsHalted()  returns FALSE (0001ms, 4253ms total)
T152C 511:694 JLINK_IsHalted()  returns FALSE (0001ms, 4253ms total)
T152C 511:895 JLINK_IsHalted()  returns FALSE (0001ms, 4253ms total)
T152C 512:097 JLINK_IsHalted()  returns FALSE (0001ms, 4253ms total)
T152C 512:299 JLINK_IsHalted()  returns FALSE (0000ms, 4252ms total)
T152C 512:500 JLINK_IsHalted()  returns FALSE (0000ms, 4252ms total)
T152C 512:701 JLINK_IsHalted()  returns FALSE (0001ms, 4253ms total)
T152C 512:902 JLINK_IsHalted()  returns FALSE (0000ms, 4252ms total)
T152C 513:104 JLINK_IsHalted()  returns FALSE (0000ms, 4252ms total)
T152C 513:304 JLINK_IsHalted()  returns FALSE (0001ms, 4253ms total)
T152C 513:506 JLINK_IsHalted()  returns FALSE (0001ms, 4253ms total)
T152C 513:708 JLINK_IsHalted()  returns FALSE (0001ms, 4253ms total)
T152C 513:909 JLINK_IsHalted()  returns FALSE (0001ms, 4253ms total)
T152C 514:110 JLINK_IsHalted()  returns FALSE (0001ms, 4253ms total)
T2C4C 514:228 JLINK_Halt()  returns 0x00 (0003ms, 4255ms total)
T152C 514:312 JLINK_IsHalted()  returns TRUE (0000ms, 4255ms total)
T152C 514:313 JLINK_GetMOEs(...) -- CPU_ReadMem(4 bytes @ 0xE000ED30)  returns 0x01 (0001ms, 4256ms total)
T152C 514:314 JLINK_ReadReg(R15 (PC))  returns 0x00080164 (0001ms, 4257ms total)
T2C4C 514:321 JLINK_ReadReg(R15 (PC))  returns 0x00080164 (0000ms, 4257ms total)
T2C4C 514:322 JLINK_ReadReg(R13 (SP))  returns 0x20075460 (0000ms, 4258ms total)
T2C4C 514:358 JLINK_ReadMemHW(0x00080164, 0x0004 Bytes, ...) -- CPU_ReadMem(4 bytes @ 0x00080164) - Data: FE E7 00 BF  returns 0x00 (0001ms, 4260ms total)
T2C4C 514:381 JLINK_ReadReg(R0)  returns 0x00000000 (0000ms, 4260ms total)
T2C4C 514:381 JLINK_ReadReg(R1)  returns 0xA5A5A5A5 (0001ms, 4261ms total)
T2C4C 514:382 JLINK_ReadReg(R2)  returns 0xA5A5A5A5 (0000ms, 4261ms total)
T2C4C 514:382 JLINK_ReadReg(R3)  returns 0x00080165 (0001ms, 4262ms total)
T2C4C 514:383 JLINK_ReadReg(R4)  returns 0x20071B8C (0000ms, 4262ms total)
T2C4C 514:383 JLINK_ReadReg(R5)  returns 0x20071AF8 (0001ms, 4263ms total)
T2C4C 514:384 JLINK_ReadReg(R6)  returns 0x20071AF8 (0000ms, 4263ms total)
T2C4C 514:384 JLINK_ReadReg(R7)  returns 0x00087885 (0000ms, 4263ms total)
T2C4C 514:384 JLINK_ReadReg(R8)  returns 0xA5A5A5A5 (0001ms, 4264ms total)
T2C4C 514:385 JLINK_ReadReg(R9)  returns 0xA5A5A5A5 (0000ms, 4264ms total)
T2C4C 514:385 JLINK_ReadReg(R10)  returns 0xA5A5A5A5 (0000ms, 4264ms total)
T2C4C 514:385 JLINK_ReadReg(R11)  returns 0xA5A5A5A5 (0000ms, 4264ms total)
T2C4C 514:386 JLINK_ReadReg(R12)  returns 0xA5A5A5A5 (0000ms, 4264ms total)
T2C4C 514:386 JLINK_ReadReg(R13 (SP))  returns 0x20075460 (0000ms, 4264ms total)
T2C4C 514:386 JLINK_ReadReg(R14)  returns 0x00087C73 (0000ms, 4264ms total)
T2C4C 514:387 JLINK_ReadReg(R15 (PC))  returns 0x00080164 (0000ms, 4265ms total)
T2C4C 514:387 JLINK_ReadReg(XPSR)  returns 0x61000000 (0000ms, 4265ms total)
T2C4C 514:387 JLINK_ReadReg(MSP)  returns 0x20087FE0 (0000ms, 4265ms total)
T2C4C 514:387 JLINK_ReadReg(PSP)  returns 0x20075460 (0001ms, 4266ms total)
T2C4C 514:388 JLINK_ReadReg(PRIMASK)  returns 0x00000000 (0000ms, 4266ms total)
T2C4C 514:388 JLINK_ReadReg(BASEPRI)  returns 0x00000000 (0000ms, 4266ms total)
T2C4C 514:388 JLINK_ReadReg(FAULTMASK)  returns 0x00000000 (0000ms, 4266ms total)
T2C4C 514:388 JLINK_ReadReg(CONTROL)  returns 0x02000000 (0001ms, 4267ms total)
T2C4C 514:393 JLINK_ReadMemHW(0x00087C72, 0x0004 Bytes, ...) -- CPU_ReadMem(4 bytes @ 0x00087C72) - Data: D2 E7 F8 1A  returns 0x00 (0001ms, 4268ms total)
T2C4C 514:395 JLINK_ReadMem (0x20005464, 0x0004 Bytes, ...) -- CPU_ReadMem(64 bytes @ 0x20005440) -- Updating C cache (64 bytes @ 0x20005440) -- Read from C cache (4 bytes @ 0x20005464) - Data: CD 8E 08 00  returns 0x00 (0002ms, 4270ms total)
T2C4C 514:415 JLINK_ReadMem (0x20005464, 0x0004 Bytes, ...) -- Read from C cache (4 bytes @ 0x20005464) - Data: CD 8E 08 00  returns 0x00 (0001ms, 4271ms total)
T2C4C 514:416 JLINK_ReadMem (0x20005464, 0x0004 Bytes, ...) -- Read from C cache (4 bytes @ 0x20005464) - Data: CD 8E 08 00  returns 0x00 (0001ms, 4272ms total)
T2C4C 514:417 JLINK_ReadMemHW(0x00088ECC, 0x0004 Bytes, ...) -- CPU_ReadMem(4 bytes @ 0x00088ECC) - Data: 08 B5 04 4B  returns 0x00 (0001ms, 4273ms total)
T2C4C 514:419 JLINK_ReadMem (0x20005464, 0x0004 Bytes, ...) -- Read from C cache (4 bytes @ 0x20005464) - Data: CD 8E 08 00  returns 0x00 (0001ms, 4274ms total)
T2C4C 514:420 JLINK_ReadMem (0x20005464, 0x0004 Bytes, ...) -- Read from C cache (4 bytes @ 0x20005464) - Data: CD 8E 08 00  returns 0x00 (0000ms, 4274ms total)
T2C4C 514:421 JLINK_ReadMem (0x20005464, 0x0004 Bytes, ...) -- Read from C cache (4 bytes @ 0x20005464) - Data: CD 8E 08 00  returns 0x00 (0000ms, 4275ms total)
T2C4C 514:421 JLINK_ReadMem (0x20005464, 0x0004 Bytes, ...) -- Read from C cache (4 bytes @ 0x20005464) - Data: CD 8E 08 00  returns 0x00 (0001ms, 4276ms total)
T2C4C 514:422 JLINK_ReadMemHW(0x00088ECC, 0x0004 Bytes, ...) -- CPU_ReadMem(4 bytes @ 0x00088ECC) - Data: 08 B5 04 4B  returns 0x00 (0001ms, 4277ms total)
T1554 514:454 JLINK_ReadReg(R0)  returns 0x00000000 (0001ms, 4278ms total)
T1554 514:455 JLINK_ReadReg(R1)  returns 0xA5A5A5A5 (0000ms, 4278ms total)
T1554 514:455 JLINK_ReadReg(R2)  returns 0xA5A5A5A5 (0001ms, 4279ms total)
T1554 514:456 JLINK_ReadReg(R3)  returns 0x00080165 (0000ms, 4279ms total)
T1554 514:457 JLINK_ReadReg(R4)  returns 0x20071B8C (0000ms, 4280ms total)
T1554 514:457 JLINK_ReadReg(R5)  returns 0x20071AF8 (0001ms, 4281ms total)
T1554 514:458 JLINK_ReadReg(R6)  returns 0x20071AF8 (0000ms, 4281ms total)
T1554 514:458 JLINK_ReadReg(R7)  returns 0x00087885 (0000ms, 4281ms total)
T1554 514:459 JLINK_ReadReg(R8)  returns 0xA5A5A5A5 (0000ms, 4282ms total)
T1554 514:459 JLINK_ReadReg(R9)  returns 0xA5A5A5A5 (0000ms, 4282ms total)
T1554 514:459 JLINK_ReadReg(R10)  returns 0xA5A5A5A5 (0001ms, 4283ms total)
T1554 514:460 JLINK_ReadReg(R11)  returns 0xA5A5A5A5 (0000ms, 4283ms total)
T1554 514:460 JLINK_ReadReg(R12)  returns 0xA5A5A5A5 (0000ms, 4283ms total)
T1554 514:460 JLINK_ReadReg(R13 (SP))  returns 0x20075460 (0001ms, 4284ms total)
T1554 514:461 JLINK_ReadReg(R14)  returns 0x00087C73 (0000ms, 4284ms total)
T1554 514:461 JLINK_ReadReg(R15 (PC))  returns 0x00080164 (0000ms, 4284ms total)
T1554 514:461 JLINK_ReadReg(APSR)  returns 0x60000000 (0000ms, 4284ms total)
T1554 514:461 JLINK_ReadReg(MSP)  returns 0x20087FE0 (0001ms, 4285ms total)
T1554 514:462 JLINK_ReadReg(PSP)  returns 0x20075460 (0000ms, 4285ms total)
T1554 514:462 JLINK_ReadReg(XPSR)  returns 0x61000000 (0000ms, 4285ms total)
T1554 514:462 JLINK_ReadReg(IPSR)  returns 0x00000000 (0000ms, 4285ms total)
T1554 514:462 JLINK_ReadReg(EPSR)  returns 0x01000000 (0001ms, 4286ms total)
T1554 514:463 JLINK_ReadReg(PRIMASK)  returns 0x00000000 (0000ms, 4286ms total)
T1554 514:463 JLINK_ReadReg(FAULTMASK)  returns 0x00000000 (0000ms, 4286ms total)
T1554 514:463 JLINK_ReadReg(BASEPRI)  returns 0x00000000 (0000ms, 4286ms total)
T1554 514:463 JLINK_ReadReg(CONTROL)  returns 0x02000000 (0001ms, 4287ms total)
T1554 514:464 JLINK_ReadReg(CycleCnt) -- CPU_ReadMem(4 bytes @ 0xE0001004)  returns 0x30F4796A (0000ms, 4287ms total)
T1554 514:472 JLINK_ReadReg(R0)  returns 0x00000000 (0000ms, 4287ms total)
T1554 514:472 JLINK_ReadReg(R1)  returns 0xA5A5A5A5 (0001ms, 4288ms total)
T1554 514:473 JLINK_ReadReg(R2)  returns 0xA5A5A5A5 (0000ms, 4288ms total)
T1554 514:474 JLINK_ReadReg(R3)  returns 0x00080165 (0000ms, 4289ms total)
T1554 514:474 JLINK_ReadReg(R4)  returns 0x20071B8C (0001ms, 4290ms total)
T1554 514:475 JLINK_ReadReg(R5)  returns 0x20071AF8 (0000ms, 4290ms total)
T1554 514:475 JLINK_ReadReg(R6)  returns 0x20071AF8 (0000ms, 4290ms total)
T1554 514:476 JLINK_ReadReg(R7)  returns 0x00087885 (0000ms, 4291ms total)
T1554 514:476 JLINK_ReadReg(R8)  returns 0xA5A5A5A5 (0000ms, 4291ms total)
T1554 514:476 JLINK_ReadReg(R9)  returns 0xA5A5A5A5 (0001ms, 4292ms total)
T1554 514:477 JLINK_ReadReg(R10)  returns 0xA5A5A5A5 (0000ms, 4292ms total)
T1554 514:477 JLINK_ReadReg(R11)  returns 0xA5A5A5A5 (0000ms, 4292ms total)
T1554 514:477 JLINK_ReadReg(R12)  returns 0xA5A5A5A5 (0001ms, 4293ms total)
T1554 514:478 JLINK_ReadReg(R13 (SP))  returns 0x20075460 (0000ms, 4293ms total)
T1554 514:478 JLINK_ReadReg(R14)  returns 0x00087C73 (0000ms, 4293ms total)
T1554 514:478 JLINK_ReadReg(R15 (PC))  returns 0x00080164 (0000ms, 4293ms total)
T1554 514:479 JLINK_ReadReg(APSR)  returns 0x60000000 (0000ms, 4293ms total)
T1554 514:479 JLINK_ReadReg(MSP)  returns 0x20087FE0 (0000ms, 4293ms total)
T1554 514:479 JLINK_ReadReg(PSP)  returns 0x20075460 (0000ms, 4293ms total)
T1554 514:479 JLINK_ReadReg(XPSR)  returns 0x61000000 (0000ms, 4293ms total)
T1554 514:480 JLINK_ReadReg(IPSR)  returns 0x00000000 (0000ms, 4293ms total)
T1554 514:480 JLINK_ReadReg(EPSR)  returns 0x01000000 (0000ms, 4293ms total)
T1554 514:480 JLINK_ReadReg(PRIMASK)  returns 0x00000000 (0000ms, 4293ms total)
T1554 514:480 JLINK_ReadReg(FAULTMASK)  returns 0x00000000 (0000ms, 4293ms total)
T1554 514:481 JLINK_ReadReg(BASEPRI)  returns 0x00000000 (0000ms, 4293ms total)
T1554 514:481 JLINK_ReadReg(CONTROL)  returns 0x02000000 (0000ms, 4293ms total)
T1554 514:481 JLINK_ReadReg(CycleCnt)  returns 0x30F4796A (0000ms, 4293ms total)
T1554 514:487 JLINK_ReadReg(R0)  returns 0x00000000 (0000ms, 4293ms total)
T1554 514:487 JLINK_ReadReg(R1)  returns 0xA5A5A5A5 (0001ms, 4294ms total)
T1554 514:488 JLINK_ReadReg(R2)  returns 0xA5A5A5A5 (0000ms, 4294ms total)
T1554 514:488 JLINK_ReadReg(R3)  returns 0x00080165 (0001ms, 4295ms total)
T1554 514:489 JLINK_ReadReg(R4)  returns 0x20071B8C (0000ms, 4295ms total)
T1554 514:489 JLINK_ReadReg(R5)  returns 0x20071AF8 (0001ms, 4296ms total)
T1554 514:490 JLINK_ReadReg(R6)  returns 0x20071AF8 (0000ms, 4296ms total)
T1554 514:490 JLINK_ReadReg(R7)  returns 0x00087885 (0001ms, 4297ms total)
T1554 514:491 JLINK_ReadReg(R8)  returns 0xA5A5A5A5 (0000ms, 4297ms total)
T1554 514:491 JLINK_ReadReg(R9)  returns 0xA5A5A5A5 (0000ms, 4297ms total)
T1554 514:491 JLINK_ReadReg(R10)  returns 0xA5A5A5A5 (0001ms, 4298ms total)
T1554 514:492 JLINK_ReadReg(R11)  returns 0xA5A5A5A5 (0000ms, 4298ms total)
T1554 514:492 JLINK_ReadReg(R12)  returns 0xA5A5A5A5 (0000ms, 4298ms total)
T1554 514:492 JLINK_ReadReg(R13 (SP))  returns 0x20075460 (0001ms, 4299ms total)
T1554 514:493 JLINK_ReadReg(R14)  returns 0x00087C73 (0000ms, 4299ms total)
T1554 514:493 JLINK_ReadReg(R15 (PC))  returns 0x00080164 (0000ms, 4299ms total)
T1554 514:493 JLINK_ReadReg(APSR)  returns 0x60000000 (0000ms, 4299ms total)
T1554 514:493 JLINK_ReadReg(MSP)  returns 0x20087FE0 (0001ms, 4300ms total)
T1554 514:494 JLINK_ReadReg(PSP)  returns 0x20075460 (0000ms, 4300ms total)
T1554 514:494 JLINK_ReadReg(XPSR)  returns 0x61000000 (0000ms, 4300ms total)
T1554 514:494 JLINK_ReadReg(IPSR)  returns 0x00000000 (0000ms, 4300ms total)
T1554 514:494 JLINK_ReadReg(EPSR)  returns 0x01000000 (0001ms, 4301ms total)
T1554 514:495 JLINK_ReadReg(PRIMASK)  returns 0x00000000 (0000ms, 4301ms total)
T1554 514:495 JLINK_ReadReg(FAULTMASK)  returns 0x00000000 (0000ms, 4301ms total)
T1554 514:495 JLINK_ReadReg(BASEPRI)  returns 0x00000000 (0000ms, 4301ms total)
T1554 514:495 JLINK_ReadReg(CONTROL)  returns 0x02000000 (0001ms, 4302ms total)
T1554 514:496 JLINK_ReadReg(CycleCnt)  returns 0x30F4796A (0000ms, 4302ms total)
T152C 514:517 JLINK_IsHalted()  returns TRUE (0000ms, 4302ms total)
T152C 514:717 JLINK_IsHalted()  returns TRUE (0000ms, 4302ms total)
T152C 514:918 JLINK_IsHalted()  returns TRUE (0000ms, 4302ms total)
T152C 515:118 JLINK_IsHalted()  returns TRUE (0000ms, 4302ms total)
T152C 515:319 JLINK_IsHalted()  returns TRUE (0000ms, 4302ms total)
T152C 515:519 JLINK_IsHalted()  returns TRUE (0000ms, 4302ms total)
T152C 515:721 JLINK_IsHalted()  returns TRUE (0000ms, 4302ms total)
T152C 515:922 JLINK_IsHalted()  returns TRUE (0001ms, 4303ms total)
T152C 516:123 JLINK_IsHalted()  returns TRUE (0002ms, 4304ms total)
T2C4C 516:254 JLINK_ReadReg(R15 (PC))  returns 0x00080164 (0000ms, 4302ms total)
T2C4C 516:254 JLINK_Go() -- CPU_ReadMem(4 bytes @ 0xE0001000) -- CPU_WriteMem(4 bytes @ 0xE000ED30) (0002ms, 4304ms total)
T152C 516:256 JLINK_IsHalted()  returns FALSE (0000ms, 4304ms total)
T152C 516:297 JLINK_IsHalted()  returns FALSE (0001ms, 4305ms total)
T152C 516:458 JLINK_IsHalted()  returns FALSE (0001ms, 4305ms total)
T152C 516:660 JLINK_IsHalted()  returns FALSE (0001ms, 4305ms total)
T152C 516:862 JLINK_IsHalted()  returns FALSE (0000ms, 4304ms total)
T152C 517:062 JLINK_IsHalted()  returns FALSE (0001ms, 4305ms total)
T152C 517:264 JLINK_IsHalted()  returns FALSE (0000ms, 4304ms total)
T152C 517:465 JLINK_IsHalted()  returns FALSE (0000ms, 4304ms total)
T152C 517:666 JLINK_IsHalted()  returns FALSE (0000ms, 4304ms total)
T152C 517:867 JLINK_IsHalted()  returns FALSE (0000ms, 4304ms total)
T152C 518:067 JLINK_IsHalted()  returns FALSE (0001ms, 4305ms total)
T152C 518:269 JLINK_IsHalted()  returns FALSE (0001ms, 4305ms total)
T152C 518:470 JLINK_IsHalted()  returns FALSE (0001ms, 4305ms total)
T152C 518:672 JLINK_IsHalted()  returns FALSE (0001ms, 4305ms total)
T152C 518:874 JLINK_IsHalted()  returns FALSE (0001ms, 4305ms total)
T152C 519:076 JLINK_IsHalted()  returns FALSE (0001ms, 4305ms total)
T152C 519:277 JLINK_IsHalted()  returns FALSE (0001ms, 4305ms total)
T152C 519:479 JLINK_IsHalted()  returns FALSE (0001ms, 4305ms total)
T152C 519:682 JLINK_IsHalted()  returns FALSE (0001ms, 4305ms total)
T2C4C 519:693 JLINK_Halt()  returns 0x00 (0003ms, 4307ms total)
T152C 519:884 JLINK_IsHalted()  returns TRUE (0000ms, 4307ms total)
T152C 519:884 JLINK_GetMOEs(...) -- CPU_ReadMem(4 bytes @ 0xE000ED30)  returns 0x01 (0001ms, 4308ms total)
T152C 519:885 JLINK_ReadReg(R15 (PC))  returns 0x00080164 (0000ms, 4308ms total)
T2C4C 519:888 JLINK_ReadReg(R15 (PC))  returns 0x00080164 (0000ms, 4308ms total)
T2C4C 519:888 JLINK_ReadReg(R13 (SP))  returns 0x20075460 (0000ms, 4308ms total)
T2C4C 519:888 JLINK_ReadMemHW(0x00080164, 0x0004 Bytes, ...) -- CPU_ReadMem(4 bytes @ 0x00080164) - Data: FE E7 00 BF  returns 0x00 (0001ms, 4309ms total)
T2C4C 519:921 JLINK_ReadReg(R0)  returns 0x00000000 (0000ms, 4309ms total)
T2C4C 519:921 JLINK_ReadReg(R1)  returns 0xA5A5A5A5 (0000ms, 4309ms total)
T2C4C 519:921 JLINK_ReadReg(R2)  returns 0xA5A5A5A5 (0000ms, 4309ms total)
T2C4C 519:922 JLINK_ReadReg(R3)  returns 0x00080165 (0000ms, 4309ms total)
T2C4C 519:922 JLINK_ReadReg(R4)  returns 0x20071B8C (0000ms, 4309ms total)
T2C4C 519:922 JLINK_ReadReg(R5)  returns 0x20071AF8 (0000ms, 4309ms total)
T2C4C 519:922 JLINK_ReadReg(R6)  returns 0x20071AF8 (0000ms, 4309ms total)
T2C4C 519:922 JLINK_ReadReg(R7)  returns 0x00087885 (0001ms, 4310ms total)
T2C4C 519:923 JLINK_ReadReg(R8)  returns 0xA5A5A5A5 (0000ms, 4310ms total)
T2C4C 519:923 JLINK_ReadReg(R9)  returns 0xA5A5A5A5 (0000ms, 4310ms total)
T2C4C 519:923 JLINK_ReadReg(R10)  returns 0xA5A5A5A5 (0000ms, 4310ms total)
T2C4C 519:923 JLINK_ReadReg(R11)  returns 0xA5A5A5A5 (0000ms, 4310ms total)
T2C4C 519:923 JLINK_ReadReg(R12)  returns 0xA5A5A5A5 (0001ms, 4311ms total)
T2C4C 519:924 JLINK_ReadReg(R13 (SP))  returns 0x20075460 (0000ms, 4311ms total)
T2C4C 519:924 JLINK_ReadReg(R14)  returns 0x00087C73 (0000ms, 4311ms total)
T2C4C 519:924 JLINK_ReadReg(R15 (PC))  returns 0x00080164 (0000ms, 4311ms total)
T2C4C 519:924 JLINK_ReadReg(XPSR)  returns 0x61000000 (0000ms, 4311ms total)
T2C4C 519:924 JLINK_ReadReg(MSP)  returns 0x20087FE0 (0000ms, 4311ms total)
T2C4C 519:924 JLINK_ReadReg(PSP)  returns 0x20075460 (0000ms, 4311ms total)
T2C4C 519:924 JLINK_ReadReg(PRIMASK)  returns 0x00000000 (0000ms, 4311ms total)
T2C4C 519:924 JLINK_ReadReg(BASEPRI)  returns 0x00000000 (0001ms, 4312ms total)
T2C4C 519:925 JLINK_ReadReg(FAULTMASK)  returns 0x00000000 (0000ms, 4312ms total)
T2C4C 519:925 JLINK_ReadReg(CONTROL)  returns 0x02000000 (0000ms, 4312ms total)
T2C4C 519:925 JLINK_ReadMemHW(0x00087C72, 0x0004 Bytes, ...) -- CPU_ReadMem(4 bytes @ 0x00087C72) - Data: D2 E7 F8 1A  returns 0x00 (0001ms, 4313ms total)
T2C4C 519:926 JLINK_ReadMem (0x20005464, 0x0004 Bytes, ...) -- CPU_ReadMem(64 bytes @ 0x20005440) -- Updating C cache (64 bytes @ 0x20005440) -- Read from C cache (4 bytes @ 0x20005464) - Data: CD 8E 08 00  returns 0x00 (0001ms, 4314ms total)
T2C4C 519:928 JLINK_ReadMem (0x20005464, 0x0004 Bytes, ...) -- Read from C cache (4 bytes @ 0x20005464) - Data: CD 8E 08 00  returns 0x00 (0000ms, 4314ms total)
T2C4C 519:928 JLINK_ReadMem (0x20005464, 0x0004 Bytes, ...) -- Read from C cache (4 bytes @ 0x20005464) - Data: CD 8E 08 00  returns 0x00 (0000ms, 4314ms total)
T2C4C 519:928 JLINK_ReadMemHW(0x00088ECC, 0x0004 Bytes, ...) -- CPU_ReadMem(4 bytes @ 0x00088ECC) - Data: 08 B5 04 4B  returns 0x00 (0001ms, 4315ms total)
T2C4C 519:929 JLINK_ReadMem (0x20005464, 0x0004 Bytes, ...) -- Read from C cache (4 bytes @ 0x20005464) - Data: CD 8E 08 00  returns 0x00 (0000ms, 4315ms total)
T2C4C 519:930 JLINK_ReadMem (0x20005464, 0x0004 Bytes, ...) -- Read from C cache (4 bytes @ 0x20005464) - Data: CD 8E 08 00  returns 0x00 (0000ms, 4316ms total)
T2C4C 519:930 JLINK_ReadMem (0x20005464, 0x0004 Bytes, ...) -- Read from C cache (4 bytes @ 0x20005464) - Data: CD 8E 08 00  returns 0x00 (0000ms, 4316ms total)
T2C4C 519:930 JLINK_ReadMem (0x20005464, 0x0004 Bytes, ...) -- Read from C cache (4 bytes @ 0x20005464) - Data: CD 8E 08 00  returns 0x00 (0000ms, 4316ms total)
T2C4C 519:931 JLINK_ReadMemHW(0x00088ECC, 0x0004 Bytes, ...) -- CPU_ReadMem(4 bytes @ 0x00088ECC) - Data: 08 B5 04 4B  returns 0x00 (0000ms, 4316ms total)
T1554 519:947 JLINK_ReadReg(R0)  returns 0x00000000 (0000ms, 4316ms total)
T1554 519:947 JLINK_ReadReg(R1)  returns 0xA5A5A5A5 (0000ms, 4316ms total)
T1554 519:947 JLINK_ReadReg(R2)  returns 0xA5A5A5A5 (0000ms, 4316ms total)
T1554 519:947 JLINK_ReadReg(R3)  returns 0x00080165 (0001ms, 4317ms total)
T1554 519:948 JLINK_ReadReg(R4)  returns 0x20071B8C (0000ms, 4317ms total)
T1554 519:948 JLINK_ReadReg(R5)  returns 0x20071AF8 (0000ms, 4317ms total)
T1554 519:948 JLINK_ReadReg(R6)  returns 0x20071AF8 (0000ms, 4317ms total)
T1554 519:948 JLINK_ReadReg(R7)  returns 0x00087885 (0000ms, 4317ms total)
T1554 519:948 JLINK_ReadReg(R8)  returns 0xA5A5A5A5 (0000ms, 4317ms total)
T1554 519:948 JLINK_ReadReg(R9)  returns 0xA5A5A5A5 (0000ms, 4317ms total)
T1554 519:948 JLINK_ReadReg(R10)  returns 0xA5A5A5A5 (0001ms, 4318ms total)
T1554 519:949 JLINK_ReadReg(R11)  returns 0xA5A5A5A5 (0000ms, 4318ms total)
T1554 519:949 JLINK_ReadReg(R12)  returns 0xA5A5A5A5 (0000ms, 4318ms total)
T1554 519:949 JLINK_ReadReg(R13 (SP))  returns 0x20075460 (0000ms, 4318ms total)
T1554 519:949 JLINK_ReadReg(R14)  returns 0x00087C73 (0000ms, 4318ms total)
T1554 519:949 JLINK_ReadReg(R15 (PC))  returns 0x00080164 (0000ms, 4318ms total)
T1554 519:949 JLINK_ReadReg(APSR)  returns 0x60000000 (0000ms, 4318ms total)
T1554 519:949 JLINK_ReadReg(MSP)  returns 0x20087FE0 (0001ms, 4319ms total)
T1554 519:950 JLINK_ReadReg(PSP)  returns 0x20075460 (0000ms, 4319ms total)
T1554 519:950 JLINK_ReadReg(XPSR)  returns 0x61000000 (0000ms, 4319ms total)
T1554 519:950 JLINK_ReadReg(IPSR)  returns 0x00000000 (0000ms, 4319ms total)
T1554 519:950 JLINK_ReadReg(EPSR)  returns 0x01000000 (0000ms, 4319ms total)
T1554 519:950 JLINK_ReadReg(PRIMASK)  returns 0x00000000 (0000ms, 4319ms total)
T1554 519:950 JLINK_ReadReg(FAULTMASK)  returns 0x00000000 (0000ms, 4319ms total)
T1554 519:950 JLINK_ReadReg(BASEPRI)  returns 0x00000000 (0000ms, 4319ms total)
T1554 519:950 JLINK_ReadReg(CONTROL)  returns 0x02000000 (0001ms, 4320ms total)
T1554 519:951 JLINK_ReadReg(CycleCnt) -- CPU_ReadMem(4 bytes @ 0xE0001004)  returns 0x4229D1AB (0000ms, 4320ms total)
T152C 520:085 JLINK_IsHalted()  returns TRUE (0000ms, 4320ms total)
T152C 520:286 JLINK_IsHalted()  returns TRUE (0000ms, 4320ms total)
T152C 520:487 JLINK_IsHalted()  returns TRUE (0000ms, 4320ms total)
T152C 520:689 JLINK_IsHalted()  returns TRUE (0000ms, 4320ms total)
T152C 520:890 JLINK_IsHalted()  returns TRUE (0001ms, 4321ms total)
T152C 521:092 JLINK_IsHalted()  returns TRUE (0000ms, 4320ms total)
T152C 521:293 JLINK_IsHalted()  returns TRUE (0000ms, 4320ms total)
T152C 521:494 JLINK_IsHalted()  returns TRUE (0001ms, 4321ms total)
T152C 521:696 JLINK_IsHalted()  returns TRUE (0000ms, 4320ms total)
T152C 521:897 JLINK_IsHalted()  returns TRUE (0000ms, 4320ms total)
T152C 522:099 JLINK_IsHalted()  returns TRUE (0001ms, 4321ms total)
T152C 522:300 JLINK_IsHalted()  returns TRUE (0000ms, 4320ms total)
T152C 522:502 JLINK_IsHalted()  returns TRUE (0000ms, 4320ms total)
T152C 522:703 JLINK_IsHalted()  returns TRUE (0000ms, 4320ms total)
T152C 522:903 JLINK_IsHalted()  returns TRUE (0000ms, 4320ms total)
T152C 523:103 JLINK_IsHalted()  returns TRUE (0000ms, 4320ms total)
T152C 523:304 JLINK_IsHalted()  returns TRUE (0001ms, 4321ms total)
T152C 523:505 JLINK_IsHalted()  returns TRUE (0000ms, 4320ms total)
T152C 523:707 JLINK_IsHalted()  returns TRUE (0000ms, 4320ms total)
T152C 523:909 JLINK_IsHalted()  returns TRUE (0001ms, 4321ms total)
T152C 524:112 JLINK_IsHalted()  returns TRUE (0000ms, 4320ms total)
T152C 524:313 JLINK_IsHalted()  returns TRUE (0001ms, 4321ms total)
T152C 524:514 JLINK_IsHalted()  returns TRUE (0001ms, 4321ms total)
T152C 524:715 JLINK_IsHalted()  returns TRUE (0000ms, 4320ms total)
T152C 524:918 JLINK_IsHalted()  returns TRUE (0000ms, 4320ms total)
T152C 525:119 JLINK_IsHalted()  returns TRUE (0001ms, 4321ms total)
T152C 525:321 JLINK_IsHalted()  returns TRUE (0000ms, 4320ms total)
T152C 525:521 JLINK_IsHalted()  returns TRUE (0000ms, 4320ms total)
T152C 525:723 JLINK_IsHalted()  returns TRUE (0001ms, 4321ms total)
T152C 525:925 JLINK_IsHalted()  returns TRUE (0000ms, 4320ms total)
T152C 526:126 JLINK_IsHalted()  returns TRUE (0000ms, 4320ms total)
T152C 526:328 JLINK_IsHalted()  returns TRUE (0001ms, 4321ms total)
